
T23F8 000:414 SEGGER J-Link V4.80g Log File (0001ms, 0270ms total)
T23F8 000:414 DLL Compiled: Feb 13 2014 20:50:02 (0001ms, 0270ms total)
T23F8 000:414 Logging started @ 2017-09-12 21:16 (0001ms, 0270ms total)
T23F8 000:415 JLINK_SetWarnOutHandler(...) (0000ms, 0270ms total)
T23F8 000:415 JLINK_OpenEx(...)
Firmware: J-Link ARM V8 compiled Nov 28 2014 13:44:46
Hardware: V8.00
Feature(s): RDI,FlashDL,FlashBP,JFlash,GDBFULL  returns O.K. (0266ms, 0536ms total)
T23F8 000:681 JLINK_SetErrorOutHandler(...) (0000ms, 0536ms total)
T23F8 000:681 JLINK_ExecCommand("ProjectFile = "D:\work\can\src\bsp\stm32f40x\JLinkSettings.ini"", ...)  returns 0x00 (0001ms, 0537ms total)
T23F8 000:682 JLINK_ExecCommand("Device = STM32F407VG", ...)Device "STM32F407VG" selected (1024 KB flash, 128 KB RAM).  returns 0x00 (0003ms, 0540ms total)
T23F8 000:685 JLINK_ExecCommand("DisableConnectionTimeout", ...)  returns 0x01 (0000ms, 0540ms total)
T23F8 000:685 JLINK_GetHardwareVersion()  returns 0x13880 (0000ms, 0540ms total)
T23F8 000:685 JLINK_GetDLLVersion()  returns 48007 (0000ms, 0540ms total)
T23F8 000:685 JLINK_GetFirmwareString(...) (0000ms, 0540ms total)
T23F8 000:686 JLINK_GetDLLVersion()  returns 48007 (0000ms, 0540ms total)
T23F8 000:686 JLINK_GetCompileDateTime() (0000ms, 0540ms total)
T23F8 000:686 JLINK_GetFirmwareString(...) (0000ms, 0540ms total)
T23F8 000:686 JLINK_GetHardwareVersion()  returns 0x13880 (0000ms, 0540ms total)
T23F8 000:688 JLINK_TIF_Select(JLINKARM_TIF_SWD)  returns 0x00 (0011ms, 0551ms total)
T23F8 000:699 JLINK_SetSpeed(5000) (0001ms, 0552ms total)
T23F8 000:700 JLINK_GetId() >0x108 TIF>Found SWD-DP with ID 0x2BA01477 >0x0D TIF> >0x28 TIF> >0x0D TIF> >0x28 TIF> >0x0D TIF> >0x21 TIF> >0x0D TIF> >0x28 TIF> >0x0D TIF> >0x28 TIF> >0x0D TIF> >0x28 TIF> >0x0D TIF> >0x21 TIF> >0x0D TIF> >0x21 TIF> >0x0D TIF> >0x28 TIF> >0x0D TIF> >0x21 TIF> >0x0D TIF> >0x21 TIF> >0x0D TIF> >0x28 TIF> >0x0D TIF> >0x21 TIF> >0x0D TIF> >0x21 TIF> >0x108 TIF>Found SWD-DP with ID 0x2BA01477 >0x0D TIF> >0x21 TIF> >0x0D TIF> >0x28 TIF> >0x0D TIF> >0x28 TIF> >0x0D TIF> >0x21 TIF>
 >0x0D TIF> >0x28 TIF> >0x0D TIF> >0x21 TIF> >0x0D TIF> >0x21 TIF> >0x0D TIF> >0x21 TIF> >0x0D TIF> >0x21 TIF> >0x0D TIF> >0x28 TIF> >0x0D TIF> >0x28 TIF> >0x0D TIF> >0x21 TIF> >0x0D TIF> >0x28 TIF> >0x0D TIF> >0x28 TIF> >0x0D TIF> >0x28 TIF> >0x0D TIF> >0x21 TIF> >0x0D TIF> >0x21 TIF> >0x0D TIF> >0x28 TIF> >0x0D TIF> >0x21 TIF> >0x0D TIF> >0x21 TIF>Found Cortex-M4 r0p1, Little endian. -- CPU_WriteMem(4 bytes @ 0xE0002000) -- CPU_ReadMem(4 bytes @ 0xE000EDF0) -- CPU_ReadMem(4 bytes @ 0xE0002000)
FPUnit: 6 code (BP) slots and 2 literal slots -- CPU_ReadMem(4 bytes @ 0xE000EDFC) -- CPU_ReadMem(4 bytes @ 0xE0001000) -- CPU_WriteMem(4 bytes @ 0xE0001000) -- CPU_ReadMem(4 bytes @ 0xE00FF010)TPIU fitted. -- CPU_ReadMem(4 bytes @ 0xE00FF014)ETM fitted. -- CPU_ReadMem(4 bytes @ 0xE00FF018) >0x0D TIF> >0x21 TIF>  returns 0x2BA01477 (0054ms, 0606ms total)
T23F8 000:754 JLINK_GetDeviceFamily()  returns 14 (0000ms, 0606ms total)
T23F8 000:754 JLINK_ReadMem (0xE00FFFF0, 0x0010 Bytes, ...) -- CPU is running -- CPU_ReadMem(16 bytes @ 0xE00FFFF0) -- Data:  0D 00 00 00 10 00 00 00 05 00 00 00 B1 00 00 00  returns 0x00 (0001ms, 0607ms total)
T23F8 000:755 JLINK_ReadMem (0xE00FFFD0, 0x0020 Bytes, ...) -- CPU is running -- CPU_ReadMem(32 bytes @ 0xE00FFFD0) -- Data:  00 00 00 00 00 00 00 00 00 00 00 00 00 00 00 00 ...  returns 0x00 (0001ms, 0608ms total)
T23F8 000:756 JLINK_ReadMem (0xE00FF000, 0x0018 Bytes, ...) -- CPU is running -- CPU_ReadMem(24 bytes @ 0xE00FF000) -- Data:  03 F0 F0 FF 03 20 F0 FF 03 30 F0 FF 03 10 F0 FF ...  returns 0x00 (0001ms, 0609ms total)
T23F8 000:757 JLINK_ReadMemU32(0xE000ED00, 0x0001 Items, ...) -- CPU is running -- CPU_ReadMem(4 bytes @ 0xE000ED00) -- Data:  41 C2 0F 41  returns 0x01 (0001ms, 0610ms total)
T23F8 000:758 JLINK_ReadMemU32(0xE000EF40, 0x0001 Items, ...) -- CPU is running -- CPU_ReadMem(4 bytes @ 0xE000EF40) -- Data:  21 00 11 10  returns 0x01 (0001ms, 0611ms total)
T23F8 000:759 JLINK_ReadMemU32(0xE000EF44, 0x0001 Items, ...) -- CPU is running -- CPU_ReadMem(4 bytes @ 0xE000EF44) -- Data:  11 00 00 11  returns 0x01 (0001ms, 0612ms total)
T23F8 000:760 JLINK_SetResetType(JLINKARM_RESET_TYPE_NORMAL)  returns JLINKARM_RESET_TYPE_NORMAL (0000ms, 0612ms total)
T23F8 000:760 JLINK_Reset() -- CPU is running -- CPU_WriteMem(4 bytes @ 0xE000EDF0) -- CPU is running -- CPU_WriteMem(4 bytes @ 0xE000EDFC) >0x35 TIF> -- CPU is running -- CPU_WriteMem(4 bytes @ 0xE000ED0C) -- CPU is running -- CPU_ReadMem(4 bytes @ 0xE000EDF0) -- CPU is running -- CPU_ReadMem(4 bytes @ 0xE000EDF0) -- CPU is running -- CPU_WriteMem(4 bytes @ 0xE000EDF0) -- CPU is running -- CPU_WriteMem(4 bytes @ 0xE000EDFC) -- CPU is running -- CPU_ReadMem(4 bytes @ 0xE000EDF0)
 -- CPU_WriteMem(4 bytes @ 0xE0002000) -- CPU_ReadMem(4 bytes @ 0xE000EDFC) -- CPU_ReadMem(4 bytes @ 0xE0001000) (0020ms, 0632ms total)
T23F8 000:780 JLINK_ReadReg(R15 (PC))  returns 0x0800E4CC (0000ms, 0632ms total)
T23F8 000:780 JLINK_ReadReg(XPSR)  returns 0x01000000 (0000ms, 0632ms total)
T23F8 000:780 JLINK_Halt()  returns 0x00 (0000ms, 0632ms total)
T23F8 000:780 JLINK_IsHalted()  returns TRUE (0000ms, 0632ms total)
T23F8 000:780 JLINK_ReadMemU32(0xE000EDF0, 0x0001 Items, ...) -- CPU_ReadMem(4 bytes @ 0xE000EDF0) -- Data:  03 00 03 00  returns 0x01 (0001ms, 0633ms total)
T23F8 000:781 JLINK_WriteU32(0xE000EDF0, 0xA05F0003) -- CPU_WriteMem(4 bytes @ 0xE000EDF0)  returns 0x00 (0001ms, 0634ms total)
T23F8 000:782 JLINK_WriteU32(0xE000EDFC, 0x01000000) -- CPU_WriteMem(4 bytes @ 0xE000EDFC)  returns 0x00 (0001ms, 0635ms total)
T23F8 000:783 JLINK_GetHWStatus(...)  returns 0x00 (0001ms, 0636ms total)
T23F8 000:784 JLINK_GetNumBPUnits(Type = 0xFFFFFF00)  returns 0x06 (0000ms, 0636ms total)
T23F8 000:784 JLINK_GetNumBPUnits(Type = 0xF0)  returns 0x2000 (0000ms, 0636ms total)
T23F8 000:784 JLINK_GetNumWPUnits()  returns 0x04 (0000ms, 0636ms total)
T23F8 000:785 JLINK_GetSpeed()  returns 0xFA0 (0000ms, 0636ms total)
T23F8 000:785 JLINK_ReadMemU32(0xE000E004, 0x0001 Items, ...) -- CPU_ReadMem(4 bytes @ 0xE000E004) -- Data:  02 00 00 00  returns 0x01 (0001ms, 0637ms total)
T23F8 000:786 JLINK_ReadMemU32(0xE000E004, 0x0001 Items, ...) -- CPU_ReadMem(4 bytes @ 0xE000E004) -- Data:  02 00 00 00  returns 0x01 (0001ms, 0638ms total)
T23F8 000:787 JLINK_WriteMem(0xE0001000, 0x001C Bytes, ...) -- Data:  01 00 00 00 00 00 00 00 00 00 00 00 00 00 00 00 ... -- CPU_WriteMem(28 bytes @ 0xE0001000)  returns 0x1C (0001ms, 0639ms total)
T23F8 000:788 JLINK_ReadMem (0xE0001000, 0x001C Bytes, ...) -- CPU_ReadMem(28 bytes @ 0xE0001000) -- Data:  01 00 00 40 00 00 00 00 00 00 00 00 00 00 00 00 ...  returns 0x00 (0001ms, 0640ms total)
T23F8 000:789 JLINK_ReadReg(R15 (PC))  returns 0x0800E4CC (0000ms, 0640ms total)
T23F8 000:789 JLINK_ReadReg(XPSR)  returns 0x01000000 (0000ms, 0640ms total)
T23F8 000:876 JLINK_ReadMem (0x08000000, 0x1000 Bytes, ...) -- CPU_ReadMem(4096 bytes @ 0x08000000) -- Updating C cache (4096 bytes @ 0x08000000) -- Read from C cache (4096 bytes @ 0x08000000) -- Data:  D8 78 00 20 CD E4 00 08 51 10 00 08 11 29 01 08 ...  returns 0x00 (0028ms, 0668ms total)
T23F8 000:905 JLINK_ReadMem (0x08001000, 0x1000 Bytes, ...) -- CPU_ReadMem(4096 bytes @ 0x08001000) -- Updating C cache (4096 bytes @ 0x08001000) -- Read from C cache (4096 bytes @ 0x08001000) -- Data:  E0 22 90 61 07 20 10 61 00 BF 6F F0 04 00 03 F0 ...  returns 0x00 (0029ms, 0697ms total)
T23F8 000:935 JLINK_ReadMem (0x08002000, 0x1000 Bytes, ...) -- CPU_ReadMem(4096 bytes @ 0x08002000) -- Updating C cache (4096 bytes @ 0x08002000) -- Read from C cache (4096 bytes @ 0x08002000) -- Data:  01 F4 7F 01 40 EA 11 20 01 99 40 EA 11 60 28 60 ...  returns 0x00 (0029ms, 0726ms total)
T23F8 000:965 JLINK_ReadMem (0x08003000, 0x1000 Bytes, ...) -- CPU_ReadMem(4096 bytes @ 0x08003000) -- Updating C cache (4096 bytes @ 0x08003000) -- Read from C cache (4096 bytes @ 0x08003000) -- Data:  88 60 00 20 C8 60 4F F4 80 60 08 61 08 46 06 F0 ...  returns 0x00 (0029ms, 0755ms total)
T23F8 000:996 JLINK_ReadMem (0x08004000, 0x1000 Bytes, ...) -- CPU_ReadMem(4096 bytes @ 0x08004000) -- Updating C cache (4096 bytes @ 0x08004000) -- Read from C cache (4096 bytes @ 0x08004000) -- Data:  B4 EB 01 08 69 32 63 00 0C B5 00 20 01 90 00 90 ...  returns 0x00 (0028ms, 0783ms total)
T23F8 001:026 JLINK_ReadMem (0x08005000, 0x1000 Bytes, ...) -- CPU_ReadMem(4096 bytes @ 0x08005000) -- Updating C cache (4096 bytes @ 0x08005000) -- Read from C cache (4096 bytes @ 0x08005000) -- Data:  70 BD 70 B5 05 46 0C 46 16 46 16 48 85 42 02 D0 ...  returns 0x00 (0029ms, 0812ms total)
T23F8 001:057 JLINK_ReadMem (0x08006000, 0x1000 Bytes, ...) -- CPU_ReadMem(4096 bytes @ 0x08006000) -- Updating C cache (4096 bytes @ 0x08006000) -- Read from C cache (4096 bytes @ 0x08006000) -- Data:  00 D1 05 E0 40 F2 35 31 AF F2 EC 60 FA F7 B6 FE ...  returns 0x00 (0029ms, 0841ms total)
T23F8 001:087 JLINK_ReadMem (0x08007000, 0x1000 Bytes, ...) -- CPU_ReadMem(4096 bytes @ 0x08007000) -- Updating C cache (4096 bytes @ 0x08007000) -- Read from C cache (4096 bytes @ 0x08007000) -- Data:  34 78 78 5F 53 74 64 50 65 72 69 70 68 5F 44 72 ...  returns 0x00 (0029ms, 0870ms total)
T23F8 001:117 JLINK_ReadMem (0x08008000, 0x1000 Bytes, ...) -- CPU_ReadMem(4096 bytes @ 0x08008000) -- Updating C cache (4096 bytes @ 0x08008000) -- Read from C cache (4096 bytes @ 0x08008000) -- Data:  0D 46 34 F0 01 00 01 D1 04 B1 05 E0 40 F2 7B 41 ...  returns 0x00 (0029ms, 0899ms total)
T23F8 001:147 JLINK_ReadMem (0x08009000, 0x1000 Bytes, ...) -- CPU_ReadMem(4096 bytes @ 0x08009000) -- Updating C cache (4096 bytes @ 0x08009000) -- Read from C cache (4096 bytes @ 0x08009000) -- Data:  F7 F7 BC FE B7 F5 80 7F 02 D0 B7 F5 00 7F 00 D1 ...  returns 0x00 (0029ms, 0928ms total)
T23F8 001:178 JLINK_ReadMem (0x0800A000, 0x1000 Bytes, ...) -- CPU_ReadMem(4096 bytes @ 0x0800A000) -- Updating C cache (4096 bytes @ 0x0800A000) -- Read from C cache (4096 bytes @ 0x0800A000) -- Data:  08 43 05 43 5B 48 28 30 05 60 70 BD 4F F0 FF 31 ...  returns 0x00 (0028ms, 0956ms total)
T23F8 001:208 JLINK_ReadMem (0x0800B000, 0x1000 Bytes, ...) -- CPU_ReadMem(4096 bytes @ 0x0800B000) -- Updating C cache (4096 bytes @ 0x0800B000) -- Read from C cache (4096 bytes @ 0x0800B000) -- Data:  00 B9 05 E0 40 F2 13 31 AF F6 4C 00 F5 F7 B6 FE ...  returns 0x00 (0029ms, 0985ms total)
T23F8 001:238 JLINK_ReadMem (0x0800C000, 0x1000 Bytes, ...) -- CPU_ReadMem(4096 bytes @ 0x0800C000) -- Updating C cache (4096 bytes @ 0x0800C000) -- Read from C cache (4096 bytes @ 0x0800C000) -- Data:  08 2D 00 D1 04 E0 40 F2 16 71 3B 48 F4 F7 B6 FE ...  returns 0x00 (0029ms, 1014ms total)
T23F8 001:268 JLINK_ReadMem (0x0800D000, 0x1000 Bytes, ...) -- CPU_ReadMem(4096 bytes @ 0x0800D000) -- Updating C cache (4096 bytes @ 0x0800D000) -- Read from C cache (4096 bytes @ 0x0800D000) -- Data:  40 F6 8A 21 71 48 F3 F7 B9 FE 29 46 20 46 FF F7 ...  returns 0x00 (0030ms, 1044ms total)
T23F8 001:299 JLINK_ReadMem (0x0800E000, 0x1000 Bytes, ...) -- CPU_ReadMem(4096 bytes @ 0x0800E000) -- Updating C cache (4096 bytes @ 0x0800E000) -- Read from C cache (4096 bytes @ 0x0800E000) -- Data:  0E 41 AF F2 E4 50 F2 F7 B9 FE 25 B1 A0 8A 40 F0 ...  returns 0x00 (0029ms, 1073ms total)
T23F8 001:330 JLINK_ReadMem (0x0800F000, 0x1000 Bytes, ...) -- CPU_ReadMem(4096 bytes @ 0x0800F000) -- Updating C cache (4096 bytes @ 0x0800F000) -- Read from C cache (4096 bytes @ 0x0800F000) -- Data:  00 68 18 B1 20 46 C8 49 09 68 88 47 00 BF 00 20 ...  returns 0x00 (0029ms, 1102ms total)
T23F8 001:361 JLINK_ReadMem (0x08010000, 0x1000 Bytes, ...) -- CPU_ReadMem(4096 bytes @ 0x08010000) -- Updating C cache (4096 bytes @ 0x08010000) -- Read from C cache (4096 bytes @ 0x08010000) -- Data:  10 B5 00 BF 00 BF 02 F0 13 FC 04 46 0D 48 00 78 ...  returns 0x00 (0028ms, 1130ms total)
T23F8 001:391 JLINK_ReadMem (0x08011000, 0x1000 Bytes, ...) -- CPU_ReadMem(4096 bytes @ 0x08011000) -- Updating C cache (4096 bytes @ 0x08011000) -- Read from C cache (4096 bytes @ 0x08011000) -- Data:  F5 5F 05 D0 40 F2 1D 22 90 49 97 A0 FF F7 A9 FC ...  returns 0x00 (0030ms, 1160ms total)
T23F8 001:422 JLINK_ReadMem (0x08012000, 0x1000 Bytes, ...) -- CPU_ReadMem(4096 bytes @ 0x08012000) -- Updating C cache (4096 bytes @ 0x08012000) -- Read from C cache (4096 bytes @ 0x08012000) -- Data:  00 20 F9 E7 70 B5 04 46 2C B9 40 F2 2F 22 55 49 ...  returns 0x00 (0029ms, 1189ms total)
T23F8 001:452 JLINK_ReadMem (0x08013000, 0x1000 Bytes, ...) -- CPU_ReadMem(4096 bytes @ 0x08013000) -- Updating C cache (4096 bytes @ 0x08013000) -- Read from C cache (4096 bytes @ 0x08013000) -- Data:  00 20 20 60 4F F4 DB 70 A0 80 A0 88 44 F2 49 01 ...  returns 0x00 (0029ms, 1218ms total)
T23F8 001:483 JLINK_ReadMem (0x08014000, 0x1000 Bytes, ...) -- CPU_ReadMem(4096 bytes @ 0x08014000) -- Updating C cache (4096 bytes @ 0x08014000) -- Read from C cache (4096 bytes @ 0x08014000) -- Data:  FF 30 E5 E7 38 46 FE F7 D5 FE 38 46 FE F7 FC FC ...  returns 0x00 (0028ms, 1246ms total)
T23F8 001:513 JLINK_ReadMem (0x08015000, 0x1000 Bytes, ...) -- CPU_ReadMem(4096 bytes @ 0x08015000) -- Updating C cache (4096 bytes @ 0x08015000) -- Read from C cache (4096 bytes @ 0x08015000) -- Data:  F0 5F 04 46 0D 46 90 46 02 2D 02 D3 E0 69 A8 42 ...  returns 0x00 (0029ms, 1275ms total)
T23F8 001:543 JLINK_ReadMem (0x08016000, 0x1000 Bytes, ...) -- CPU_ReadMem(4096 bytes @ 0x08016000) -- Updating C cache (4096 bytes @ 0x08016000) -- Read from C cache (4096 bytes @ 0x08016000) -- Data:  60 6D 03 90 42 20 00 5B 01 90 01 98 08 B9 0D 20 ...  returns 0x00 (0029ms, 1304ms total)
T23F8 001:574 JLINK_ReadMem (0x08017000, 0x1000 Bytes, ...) -- CPU_ReadMem(4096 bytes @ 0x08017000) -- Updating C cache (4096 bytes @ 0x08017000) -- Read from C cache (4096 bytes @ 0x08017000) -- Data:  01 46 E4 B9 E8 7A 10 F0 10 0F 18 D0 02 2E 01 D2 ...  returns 0x00 (0028ms, 1332ms total)
T23F8 001:604 JLINK_ReadMem (0x08018000, 0x1000 Bytes, ...) -- CPU_ReadMem(4096 bytes @ 0x08018000) -- Updating C cache (4096 bytes @ 0x08018000) -- Read from C cache (4096 bytes @ 0x08018000) -- Data:  06 EB 46 00 08 EB 80 04 A0 78 00 F0 20 0A A0 78 ...  returns 0x00 (0028ms, 1360ms total)
T23F8 001:634 JLINK_ReadMem (0x08019000, 0x1000 Bytes, ...) -- CPU_ReadMem(4096 bytes @ 0x08019000) -- Updating C cache (4096 bytes @ 0x08019000) -- Read from C cache (4096 bytes @ 0x08019000) -- Data:  09 00 E1 68 01 EB C0 00 40 68 C8 F8 00 00 20 89 ...  returns 0x00 (0029ms, 1389ms total)
T23F8 001:664 JLINK_ReadMem (0x0801A000, 0x1000 Bytes, ...) -- CPU_ReadMem(4096 bytes @ 0x0801A000) -- Updating C cache (4096 bytes @ 0x0801A000) -- Read from C cache (4096 bytes @ 0x0801A000) -- Data:  00 00 00 00 20 30 78 25 30 38 78 20 30 78 25 30 ...  returns 0x00 (0029ms, 1418ms total)
T23F8 001:694 JLINK_ReadMem (0x0801B000, 0x1000 Bytes, ...) -- CPU_ReadMem(4096 bytes @ 0x0801B000) -- Updating C cache (4096 bytes @ 0x0801B000) -- Read from C cache (4096 bytes @ 0x0801B000) -- Data:  C0 B3 20 69 00 78 01 28 50 D1 20 69 40 78 01 28 ...  returns 0x00 (0029ms, 1447ms total)
T23F8 001:724 JLINK_ReadMem (0x0801C000, 0x1000 Bytes, ...) -- CPU_ReadMem(4096 bytes @ 0x0801C000) -- Updating C cache (4096 bytes @ 0x0801C000) -- Read from C cache (4096 bytes @ 0x0801C000) -- Data:  F5 D1 00 BF 43 68 0B B1 43 68 4B 60 41 60 00 BF ...  returns 0x00 (0029ms, 1476ms total)
T23F8 001:754 JLINK_ReadMem (0x0801D000, 0x1000 Bytes, ...) -- CPU_ReadMem(4096 bytes @ 0x0801D000) -- Updating C cache (4096 bytes @ 0x0801D000) -- Read from C cache (4096 bytes @ 0x0801D000) -- Data:  07 46 1F E0 00 26 20 1D 01 F0 5A F8 05 46 02 2D ...  returns 0x00 (0029ms, 1505ms total)
T23F8 001:784 JLINK_ReadMem (0x0801E000, 0x1000 Bytes, ...) -- CPU_ReadMem(4096 bytes @ 0x0801E000) -- Updating C cache (4096 bytes @ 0x0801E000) -- Read from C cache (4096 bytes @ 0x0801E000) -- Data:  20 72 5A E0 20 46 FF F7 48 FD 05 46 2F 2D 02 D1 ...  returns 0x00 (0029ms, 1534ms total)
T23F8 001:815 JLINK_ReadMem (0x0801F000, 0x1000 Bytes, ...) -- CPU_ReadMem(4096 bytes @ 0x0801F000) -- Updating C cache (4096 bytes @ 0x0801F000) -- Read from C cache (4096 bytes @ 0x0801F000) -- Data:  3C 3D 20 28 72 74 5F 75 69 6E 74 33 32 5F 74 29 ...  returns 0x00 (0029ms, 1563ms total)
T23F8 001:845 JLINK_ReadMem (0x08020000, 0x06B0 Bytes, ...) -- CPU_ReadMem(1728 bytes @ 0x08020000) -- Updating C cache (1728 bytes @ 0x08020000) -- Read from C cache (1712 bytes @ 0x08020000) -- Data:  6E 64 00 4E 75 6C 6C 20 6E 6F 64 65 00 55 6E 6B ...  returns 0x00 (0013ms, 1576ms total)
T23F8 001:913 JLINK_SetResetType(JLINKARM_RESET_TYPE_NORMAL)  returns JLINKARM_RESET_TYPE_NORMAL (0000ms, 1576ms total)
T23F8 001:913 JLINK_Reset() -- CPU_WriteMem(4 bytes @ 0xE000EDF0) -- CPU_WriteMem(4 bytes @ 0xE000EDFC) >0x35 TIF> -- CPU_WriteMem(4 bytes @ 0xE000ED0C) -- CPU_ReadMem(4 bytes @ 0xE000EDF0) -- CPU_ReadMem(4 bytes @ 0xE000EDF0) -- CPU_WriteMem(4 bytes @ 0xE000EDF0) -- CPU_WriteMem(4 bytes @ 0xE000EDFC) -- CPU is running -- CPU_ReadMem(4 bytes @ 0xE000EDF0) -- CPU_WriteMem(4 bytes @ 0xE0002000) -- CPU_ReadMem(4 bytes @ 0xE000EDFC) -- CPU_ReadMem(4 bytes @ 0xE0001000) (0020ms, 1596ms total)
T23F8 001:933 JLINK_ReadReg(R15 (PC))  returns 0x0800E4CC (0000ms, 1596ms total)
T23F8 001:933 JLINK_ReadReg(XPSR)  returns 0x01000000 (0000ms, 1596ms total)
T23F8 002:121 JLINK_ReadMem (0x0800E4CC, 0x003C Bytes, ...) -- CPU_ReadMem(128 bytes @ 0x0800E4C0) -- Updating C cache (128 bytes @ 0x0800E4C0) -- Read from C cache (60 bytes @ 0x0800E4CC) -- Data:  06 48 80 47 06 48 00 47 FE E7 FE E7 FE E7 FE E7 ...  returns 0x00 (0002ms, 1598ms total)
T0FE0 002:853 JLINK_SetBPEx(Addr = 0x08000DD8, Type = 0xFFFFFFF2)  returns 0x00000001 (0000ms, 1598ms total)
T0FE0 002:853 JLINK_Go() -- CPU_WriteMem(4 bytes @ 0xE0002000) -- CPU_WriteMem(4 bytes @ 0xE0002008) -- CPU_WriteMem(4 bytes @ 0xE000200C) -- CPU_WriteMem(4 bytes @ 0xE0002010) -- CPU_WriteMem(4 bytes @ 0xE0002014) -- CPU_WriteMem(4 bytes @ 0xE0002018) -- CPU_WriteMem(4 bytes @ 0xE000201C) -- CPU_WriteMem(4 bytes @ 0xE0001004) (0007ms, 1605ms total)
T0FE0 002:960 JLINK_IsHalted()  returns TRUE (0003ms, 1608ms total)
T0FE0 002:963 JLINK_Halt()  returns 0x00 (0000ms, 1605ms total)
T0FE0 002:963 JLINK_IsHalted()  returns TRUE (0000ms, 1605ms total)
T0FE0 002:963 JLINK_IsHalted()  returns TRUE (0000ms, 1605ms total)
T0FE0 002:963 JLINK_IsHalted()  returns TRUE (0000ms, 1605ms total)
T0FE0 002:963 JLINK_ReadReg(R15 (PC))  returns 0x08000DD8 (0000ms, 1605ms total)
T0FE0 002:963 JLINK_ReadReg(XPSR)  returns 0x61000000 (0000ms, 1605ms total)
T0FE0 002:963 JLINK_ClrBPEx(BPHandle = 0x00000001)  returns 0x00 (0000ms, 1605ms total)
T0FE0 002:963 JLINK_ReadMemU32(0xE000ED30, 0x0001 Items, ...) -- CPU_ReadMem(4 bytes @ 0xE000ED30) -- Data:  03 00 00 00  returns 0x01 (0001ms, 1606ms total)
T0FE0 002:964 JLINK_ReadMemU32(0xE0001028, 0x0001 Items, ...) -- CPU_ReadMem(4 bytes @ 0xE0001028) -- Data:  00 00 00 00  returns 0x01 (0001ms, 1607ms total)
T0FE0 002:965 JLINK_ReadMemU32(0xE0001038, 0x0001 Items, ...) -- CPU_ReadMem(4 bytes @ 0xE0001038) -- Data:  00 02 00 00  returns 0x01 (0001ms, 1608ms total)
T0FE0 002:966 JLINK_ReadMemU32(0xE0001048, 0x0001 Items, ...) -- CPU_ReadMem(4 bytes @ 0xE0001048) -- Data:  00 00 00 00  returns 0x01 (0001ms, 1609ms total)
T0FE0 002:967 JLINK_ReadMemU32(0xE0001058, 0x0001 Items, ...) -- CPU_ReadMem(4 bytes @ 0xE0001058) -- Data:  00 00 00 00  returns 0x01 (0001ms, 1610ms total)
T0FE0 002:968 JLINK_ReadReg(R0)  returns 0x08000DD9 (0000ms, 1610ms total)
T0FE0 002:968 JLINK_ReadReg(R1)  returns 0x200078D8 (0000ms, 1610ms total)
T0FE0 002:968 JLINK_ReadReg(R2)  returns 0x00000000 (0000ms, 1610ms total)
T0FE0 002:968 JLINK_ReadReg(R3)  returns 0x0801E661 (0000ms, 1610ms total)
T0FE0 002:968 JLINK_ReadReg(R4)  returns 0x080205EC (0000ms, 1610ms total)
T0FE0 002:968 JLINK_ReadReg(R5)  returns 0x080205EC (0000ms, 1610ms total)
T0FE0 002:968 JLINK_ReadReg(R6)  returns 0x00000000 (0000ms, 1610ms total)
T0FE0 002:968 JLINK_ReadReg(R7)  returns 0x00000000 (0000ms, 1610ms total)
T0FE0 002:968 JLINK_ReadReg(R8)  returns 0x00000000 (0000ms, 1610ms total)
T0FE0 002:968 JLINK_ReadReg(R9)  returns 0x00000000 (0000ms, 1610ms total)
T0FE0 002:968 JLINK_ReadReg(R10)  returns 0x00000000 (0000ms, 1610ms total)
T0FE0 002:968 JLINK_ReadReg(R11)  returns 0x00000000 (0000ms, 1610ms total)
T0FE0 002:968 JLINK_ReadReg(R12)  returns 0x00000000 (0000ms, 1610ms total)
T0FE0 002:968 JLINK_ReadReg(R13 (SP))  returns 0x200078D8 (0000ms, 1610ms total)
T0FE0 002:969 JLINK_ReadReg(R14)  returns 0x0801E4F9 (0000ms, 1611ms total)
T0FE0 002:969 JLINK_ReadReg(R15 (PC))  returns 0x08000DD8 (0000ms, 1611ms total)
T0FE0 002:969 JLINK_ReadReg(XPSR)  returns 0x61000000 (0000ms, 1611ms total)
T0FE0 002:969 JLINK_ReadReg(MSP)  returns 0x200078D8 (0000ms, 1611ms total)
T0FE0 002:969 JLINK_ReadReg(PSP)  returns 0x00000000 (0000ms, 1611ms total)
T0FE0 002:969 JLINK_ReadReg(CFBP)  returns 0x00000000 (0000ms, 1611ms total)
T0FE0 002:969 JLINK_ReadReg(FPSCR)  returns 0x00000000 (0004ms, 1615ms total)
T0FE0 002:973 JLINK_ReadReg(FPS0)  returns 0x00000000 (0000ms, 1615ms total)
T0FE0 002:973 JLINK_ReadReg(FPS1)  returns 0x00000000 (0000ms, 1615ms total)
T0FE0 002:973 JLINK_ReadReg(FPS2)  returns 0x00000000 (0000ms, 1615ms total)
T0FE0 002:973 JLINK_ReadReg(FPS3)  returns 0x00000000 (0000ms, 1615ms total)
T0FE0 002:973 JLINK_ReadReg(FPS4)  returns 0x00000000 (0000ms, 1615ms total)
T0FE0 002:973 JLINK_ReadReg(FPS5)  returns 0x00000000 (0000ms, 1615ms total)
T0FE0 002:973 JLINK_ReadReg(FPS6)  returns 0x00000000 (0000ms, 1615ms total)
T0FE0 002:973 JLINK_ReadReg(FPS7)  returns 0x00000000 (0000ms, 1615ms total)
T0FE0 002:973 JLINK_ReadReg(FPS8)  returns 0x00000000 (0000ms, 1615ms total)
T0FE0 002:973 JLINK_ReadReg(FPS9)  returns 0x00000000 (0000ms, 1615ms total)
T0FE0 002:973 JLINK_ReadReg(FPS10)  returns 0x00000000 (0000ms, 1615ms total)
T0FE0 002:973 JLINK_ReadReg(FPS11)  returns 0x00000000 (0000ms, 1615ms total)
T0FE0 002:973 JLINK_ReadReg(FPS12)  returns 0x00000000 (0000ms, 1615ms total)
T0FE0 002:973 JLINK_ReadReg(FPS13)  returns 0x00000000 (0000ms, 1615ms total)
T0FE0 002:973 JLINK_ReadReg(FPS14)  returns 0x00000000 (0000ms, 1615ms total)
T0FE0 002:973 JLINK_ReadReg(FPS15)  returns 0x00000000 (0000ms, 1615ms total)
T0FE0 002:973 JLINK_ReadReg(FPS16)  returns 0x00000000 (0000ms, 1615ms total)
T0FE0 002:973 JLINK_ReadReg(FPS17)  returns 0x00000000 (0000ms, 1615ms total)
T0FE0 002:973 JLINK_ReadReg(FPS18)  returns 0x00000000 (0000ms, 1615ms total)
T0FE0 002:973 JLINK_ReadReg(FPS19)  returns 0x00000000 (0001ms, 1616ms total)
T0FE0 002:974 JLINK_ReadReg(FPS20)  returns 0x00000000 (0000ms, 1616ms total)
T0FE0 002:974 JLINK_ReadReg(FPS31)  returns 0x00000000 (0000ms, 1616ms total)
T0FE0 002:974 JLINK_ReadReg(FPS7)  returns 0x00000000 (0000ms, 1616ms total)
T0FE0 002:974 JLINK_ReadReg(FPS8)  returns 0x00000000 (0000ms, 1616ms total)
T0FE0 002:974 JLINK_ReadReg(FPS9)  returns 0x00000000 (0000ms, 1616ms total)
T0FE0 002:974 JLINK_ReadReg(FPS10)  returns 0x00000000 (0000ms, 1616ms total)
T0FE0 002:974 JLINK_ReadReg(FPS11)  returns 0x00000000 (0000ms, 1616ms total)
T0FE0 002:974 JLINK_ReadReg(FPS12)  returns 0x00000000 (0000ms, 1616ms total)
T0FE0 002:974 JLINK_ReadReg(FPS13)  returns 0x00000000 (0000ms, 1616ms total)
T0FE0 002:974 JLINK_ReadReg(FPS14)  returns 0x00000000 (0000ms, 1616ms total)
T0FE0 002:974 JLINK_ReadReg(FPS15)  returns 0x00000000 (0000ms, 1616ms total)
T0FE0 002:974 JLINK_ReadReg(FPS16)  returns 0x00000000 (0000ms, 1616ms total)
T23F8 003:034 JLINK_ReadMem (0x08000DD8, 0x003C Bytes, ...) -- CPU_ReadMem(128 bytes @ 0x08000DC0) -- Updating C cache (128 bytes @ 0x08000DC0) -- Read from C cache (60 bytes @ 0x08000DD8) -- Data:  10 B5 11 F0 29 FD FF F7 DC FF 00 20 10 BD 00 00 ...  returns 0x00 (0002ms, 1618ms total)
T23F8 005:159 JLINK_ReadMem (0x0800280A, 0x0002 Bytes, ...) -- CPU_ReadMem(64 bytes @ 0x08002800) -- Updating C cache (64 bytes @ 0x08002800) -- Read from C cache (2 bytes @ 0x0800280A) -- Data:  00 20  returns 0x00 (0002ms, 1620ms total)
T23F8 005:161 JLINK_ReadMem (0x0800280C, 0x003C Bytes, ...) -- CPU_ReadMem(64 bytes @ 0x08002840) -- Updating C cache (64 bytes @ 0x08002840) -- Read from C cache (60 bytes @ 0x0800280C) -- Data:  08 60 48 60 88 60 C8 60 08 61 08 46 07 F0 91 FA ...  returns 0x00 (0001ms, 1621ms total)
T23F8 038:212 JLINK_ReadMem (0x08001C3A, 0x0002 Bytes, ...) -- CPU_ReadMem(64 bytes @ 0x08001C00) -- Updating C cache (64 bytes @ 0x08001C00) -- Read from C cache (2 bytes @ 0x08001C3A) -- Data:  32 48  returns 0x00 (0002ms, 1623ms total)
T23F8 038:214 JLINK_ReadMem (0x08001C3C, 0x003C Bytes, ...) -- CPU_ReadMem(64 bytes @ 0x08001C40) -- Updating C cache (64 bytes @ 0x08001C40) -- Read from C cache (60 bytes @ 0x08001C3C) -- Data:  03 78 82 68 41 68 31 A0 0E F0 B0 FD 20 46 0F F0 ...  returns 0x00 (0001ms, 1624ms total)
T0FE0 049:354 JLINK_SetBPEx(Addr = 0x08002802, Type = 0xFFFFFFF2)  returns 0x00000002 (0000ms, 1624ms total)
T0FE0 049:354 JLINK_SetBPEx(Addr = 0x08001C1C, Type = 0xFFFFFFF2)  returns 0x00000003 (0000ms, 1624ms total)
T0FE0 049:354 JLINK_SetBPEx(Addr = 0x08001C3A, Type = 0xFFFFFFF2)  returns 0x00000004 (0001ms, 1625ms total)
T0FE0 049:355 JLINK_Go() -- CPU_WriteMem(4 bytes @ 0xE0002000) -- CPU_WriteMem(4 bytes @ 0xE0002000) -- CPU_WriteMem(4 bytes @ 0xE0002000) -- CPU_WriteMem(4 bytes @ 0xE0002008) -- CPU_WriteMem(4 bytes @ 0xE000200C) -- CPU_WriteMem(4 bytes @ 0xE0002010) (0005ms, 1630ms total)
T0FE0 049:460 JLINK_IsHalted()  returns TRUE (0003ms, 1633ms total)
T0FE0 049:463 JLINK_Halt()  returns 0x00 (0000ms, 1630ms total)
T0FE0 049:463 JLINK_IsHalted()  returns TRUE (0000ms, 1630ms total)
T0FE0 049:463 JLINK_IsHalted()  returns TRUE (0000ms, 1630ms total)
T0FE0 049:463 JLINK_IsHalted()  returns TRUE (0000ms, 1630ms total)
T0FE0 049:463 JLINK_ReadReg(R15 (PC))  returns 0x08002802 (0000ms, 1630ms total)
T0FE0 049:463 JLINK_ReadReg(XPSR)  returns 0x61000000 (0000ms, 1630ms total)
T0FE0 049:463 JLINK_ClrBPEx(BPHandle = 0x00000002)  returns 0x00 (0000ms, 1630ms total)
T0FE0 049:463 JLINK_ClrBPEx(BPHandle = 0x00000003)  returns 0x00 (0000ms, 1630ms total)
T0FE0 049:463 JLINK_ClrBPEx(BPHandle = 0x00000004)  returns 0x00 (0000ms, 1630ms total)
T0FE0 049:463 JLINK_ReadMemU32(0xE000ED30, 0x0001 Items, ...) -- CPU_ReadMem(4 bytes @ 0xE000ED30) -- Data:  03 00 00 00  returns 0x01 (0001ms, 1631ms total)
T0FE0 049:464 JLINK_ReadMemU32(0xE0001028, 0x0001 Items, ...) -- CPU_ReadMem(4 bytes @ 0xE0001028) -- Data:  00 00 00 00  returns 0x01 (0000ms, 1631ms total)
T0FE0 049:464 JLINK_ReadMemU32(0xE0001038, 0x0001 Items, ...) -- CPU_ReadMem(4 bytes @ 0xE0001038) -- Data:  00 02 00 00  returns 0x01 (0001ms, 1632ms total)
T0FE0 049:465 JLINK_ReadMemU32(0xE0001048, 0x0001 Items, ...) -- CPU_ReadMem(4 bytes @ 0xE0001048) -- Data:  00 00 00 00  returns 0x01 (0001ms, 1633ms total)
T0FE0 049:466 JLINK_ReadMemU32(0xE0001058, 0x0001 Items, ...) -- CPU_ReadMem(4 bytes @ 0xE0001058) -- Data:  00 00 00 00  returns 0x01 (0001ms, 1634ms total)
T0FE0 049:467 JLINK_ReadReg(R0)  returns 0x00000000 (0000ms, 1634ms total)
T0FE0 049:467 JLINK_ReadReg(R1)  returns 0x40023824 (0000ms, 1634ms total)
T0FE0 049:467 JLINK_ReadReg(R2)  returns 0x00000008 (0000ms, 1634ms total)
T0FE0 049:467 JLINK_ReadReg(R3)  returns 0x00000200 (0000ms, 1634ms total)
T0FE0 049:467 JLINK_ReadReg(R4)  returns 0x00000000 (0000ms, 1634ms total)
T0FE0 049:467 JLINK_ReadReg(R5)  returns 0x00000000 (0000ms, 1634ms total)
T0FE0 049:467 JLINK_ReadReg(R6)  returns 0x00000000 (0000ms, 1634ms total)
T0FE0 049:467 JLINK_ReadReg(R7)  returns 0xDEADBEEF (0000ms, 1634ms total)
T0FE0 049:467 JLINK_ReadReg(R8)  returns 0xDEADBEEF (0000ms, 1634ms total)
T0FE0 049:467 JLINK_ReadReg(R9)  returns 0xDEADBEEF (0000ms, 1634ms total)
T0FE0 049:467 JLINK_ReadReg(R10)  returns 0xDEADBEEF (0000ms, 1634ms total)
T0FE0 049:467 JLINK_ReadReg(R11)  returns 0xDEADBEEF (0000ms, 1634ms total)
T0FE0 049:467 JLINK_ReadReg(R12)  returns 0x0801870D (0000ms, 1634ms total)
T0FE0 049:467 JLINK_ReadReg(R13 (SP))  returns 0x20008128 (0000ms, 1634ms total)
T0FE0 049:467 JLINK_ReadReg(R14)  returns 0x080029BB (0000ms, 1634ms total)
T0FE0 049:467 JLINK_ReadReg(R15 (PC))  returns 0x08002802 (0000ms, 1634ms total)
T0FE0 049:467 JLINK_ReadReg(XPSR)  returns 0x61000000 (0000ms, 1634ms total)
T0FE0 049:467 JLINK_ReadReg(MSP)  returns 0x200078B8 (0000ms, 1634ms total)
T0FE0 049:467 JLINK_ReadReg(PSP)  returns 0x20008128 (0000ms, 1634ms total)
T0FE0 049:467 JLINK_ReadReg(CFBP)  returns 0x02000000 (0000ms, 1634ms total)
T0FE0 049:467 JLINK_ReadReg(FPSCR)  returns 0x00000000 (0004ms, 1638ms total)
T0FE0 049:471 JLINK_ReadReg(FPS0)  returns 0x00000000 (0000ms, 1638ms total)
T0FE0 049:471 JLINK_ReadReg(FPS1)  returns 0x00000000 (0000ms, 1638ms total)
T0FE0 049:471 JLINK_ReadReg(FPS2)  returns 0x00000000 (0000ms, 1638ms total)
T0FE0 049:471 JLINK_ReadReg(FPS3)  returns 0x00000000 (0000ms, 1638ms total)
T0FE0 049:471 JLINK_ReadReg(FPS4)  returns 0x00000000 (0000ms, 1638ms total)
T0FE0 049:471 JLINK_ReadReg(FPS5)  returns 0x00000000 (0000ms, 1638ms total)
T0FE0 049:471 JLINK_ReadReg(FPS6)  returns 0x00000000 (0000ms, 1638ms total)
T0FE0 049:471 JLINK_ReadReg(FPS7)  returns 0x00000000 (0000ms, 1638ms total)
T0FE0 049:471 JLINK_ReadReg(FPS8)  returns 0x00000000 (0000ms, 1638ms total)
T0FE0 049:471 JLINK_ReadReg(FPS9)  returns 0x00000000 (0000ms, 1638ms total)
T0FE0 049:471 JLINK_ReadReg(FPS10)  returns 0x00000000 (0000ms, 1638ms total)
T0FE0 049:471 JLINK_ReadReg(FPS11)  returns 0x00000000 (0000ms, 1638ms total)
T0FE0 049:471 JLINK_ReadReg(FPS12)  returns 0x00000000 (0001ms, 1639ms total)
T0FE0 049:472 JLINK_ReadReg(FPS13)  returns 0x00000000 (0000ms, 1639ms total)
T0FE0 049:472 JLINK_ReadReg(FPS14)  returns 0x00000000 (0000ms, 1639ms total)
T0FE0 049:472 JLINK_ReadReg(FPS15)  returns 0x00000000 (0000ms, 1639ms total)
T0FE0 049:472 JLINK_ReadReg(FPS16)  returns 0x00000000 (0000ms, 1639ms total)
T0FE0 049:472 JLINK_ReadReg(FPS17)  returns 0x00000000 (0000ms, 1639ms total)
T0FE0 049:472 JLINK_ReadReg(FPS18)  returns 0x00000000 (0000ms, 1639ms total)
T0FE0 049:472 JLINK_ReadReg(FPS19)  returns 0x00000000 (0000ms, 1639ms total)
T0FE0 049:472 JLINK_ReadReg(FPS20)  returns 0x00000000 (0000ms, 1639ms total)
T0FE0 049:472 JLINK_ReadReg(FPS31)  returns 0x00000000 (0000ms, 1639ms total)
T0FE0 049:472 JLINK_ReadReg(FPS7)  returns 0x00000000 (0000ms, 1639ms total)
T0FE0 049:472 JLINK_ReadReg(FPS8)  returns 0x00000000 (0000ms, 1639ms total)
T0FE0 049:472 JLINK_ReadReg(FPS9)  returns 0x00000000 (0000ms, 1639ms total)
T0FE0 049:472 JLINK_ReadReg(FPS10)  returns 0x00000000 (0000ms, 1639ms total)
T0FE0 049:472 JLINK_ReadReg(FPS11)  returns 0x00000000 (0000ms, 1639ms total)
T0FE0 049:472 JLINK_ReadReg(FPS12)  returns 0x00000000 (0000ms, 1639ms total)
T0FE0 049:472 JLINK_ReadReg(FPS13)  returns 0x00000000 (0000ms, 1639ms total)
T0FE0 049:472 JLINK_ReadReg(FPS14)  returns 0x00000000 (0000ms, 1639ms total)
T0FE0 049:472 JLINK_ReadReg(FPS15)  returns 0x00000000 (0000ms, 1639ms total)
T0FE0 049:472 JLINK_ReadReg(FPS16)  returns 0x00000000 (0000ms, 1639ms total)
T23F8 049:472 JLINK_ReadMem (0x2000813C, 0x0004 Bytes, ...) -- CPU_ReadMem(64 bytes @ 0x20008100) -- Updating C cache (64 bytes @ 0x20008100) -- Read from C cache (4 bytes @ 0x2000813C) -- Data:  BB 29 00 08  returns 0x00 (0002ms, 1641ms total)
T23F8 049:474 JLINK_ReadMem (0x2000812C, 0x0004 Bytes, ...) -- Read from C cache (4 bytes @ 0x2000812C) -- Data:  00 00 00 00  returns 0x00 (0000ms, 1641ms total)
T23F8 049:474 JLINK_ReadMem (0x20008130, 0x0004 Bytes, ...) -- Read from C cache (4 bytes @ 0x20008130) -- Data:  EF BE AD DE  returns 0x00 (0000ms, 1641ms total)
T23F8 049:474 JLINK_ReadMem (0x20008134, 0x0004 Bytes, ...) -- Read from C cache (4 bytes @ 0x20008134) -- Data:  EF BE AD DE  returns 0x00 (0000ms, 1641ms total)
T23F8 049:474 JLINK_ReadMem (0x20008138, 0x0004 Bytes, ...) -- Read from C cache (4 bytes @ 0x20008138) -- Data:  EF BE AD DE  returns 0x00 (0000ms, 1641ms total)
T23F8 049:474 JLINK_ReadMem (0x20008144, 0x0004 Bytes, ...) -- CPU_ReadMem(64 bytes @ 0x20008140) -- Updating C cache (64 bytes @ 0x20008140) -- Read from C cache (4 bytes @ 0x20008144) -- Data:  E3 1B 00 08  returns 0x00 (0001ms, 1642ms total)
T23F8 049:475 JLINK_ReadMem (0x20008154, 0x0004 Bytes, ...) -- Read from C cache (4 bytes @ 0x20008154) -- Data:  69 1C 00 08  returns 0x00 (0000ms, 1642ms total)
T23F8 049:475 JLINK_ReadMem (0x2000814C, 0x0004 Bytes, ...) -- Read from C cache (4 bytes @ 0x2000814C) -- Data:  00 00 00 00  returns 0x00 (0000ms, 1642ms total)
T23F8 049:475 JLINK_ReadMem (0x20008150, 0x0004 Bytes, ...) -- Read from C cache (4 bytes @ 0x20008150) -- Data:  EF BE AD DE  returns 0x00 (0000ms, 1642ms total)
T23F8 049:475 JLINK_ReadMem (0x2000815C, 0x0004 Bytes, ...) -- Read from C cache (4 bytes @ 0x2000815C) -- Data:  DB 01 00 08  returns 0x00 (0000ms, 1642ms total)
T23F8 049:475 JLINK_ReadMem (0x20008158, 0x0004 Bytes, ...) -- Read from C cache (4 bytes @ 0x20008158) -- Data:  00 00 00 00  returns 0x00 (0000ms, 1642ms total)
T23F8 049:475 JLINK_ReadMem (0x2000816C, 0x0004 Bytes, ...) -- Read from C cache (4 bytes @ 0x2000816C) -- Data:  C5 1C 01 08  returns 0x00 (0000ms, 1642ms total)
T23F8 049:515 JLINK_ReadMem (0x20008164, 0x0004 Bytes, ...) -- Read from C cache (4 bytes @ 0x20008164) -- Data:  EF BE AD DE  returns 0x00 (0000ms, 1642ms total)
T23F8 049:515 JLINK_ReadMem (0x20008168, 0x0004 Bytes, ...) -- Read from C cache (4 bytes @ 0x20008168) -- Data:  EF BE AD DE  returns 0x00 (0000ms, 1642ms total)
T23F8 049:515 JLINK_ReadMem (0x20008174, 0x0004 Bytes, ...) -- Read from C cache (4 bytes @ 0x20008174) -- Data:  50 0B 00 00  returns 0x00 (0000ms, 1642ms total)
T23F8 049:515 JLINK_ReadMem (0x2000817C, 0x0004 Bytes, ...) -- Read from C cache (4 bytes @ 0x2000817C) -- Data:  73 68 72 78  returns 0x00 (0000ms, 1642ms total)
T23F8 049:515 JLINK_ReadMem (0x20008184, 0x0004 Bytes, ...) -- CPU_ReadMem(64 bytes @ 0x20008180) -- Updating C cache (64 bytes @ 0x20008180) -- Read from C cache (4 bytes @ 0x20008184) -- Data:  81 00 00 00  returns 0x00 (0001ms, 1643ms total)
T23F8 049:516 JLINK_ReadMem (0x2000818C, 0x0004 Bytes, ...) -- Read from C cache (4 bytes @ 0x2000818C) -- Data:  E0 00 00 20  returns 0x00 (0001ms, 1644ms total)
T23F8 049:517 JLINK_ReadMem (0x20008194, 0x0004 Bytes, ...) -- Read from C cache (4 bytes @ 0x20008194) -- Data:  90 81 00 20  returns 0x00 (0000ms, 1644ms total)
T23F8 049:517 JLINK_ReadMem (0x2000819C, 0x0004 Bytes, ...) -- Read from C cache (4 bytes @ 0x2000819C) -- Data:  00 00 00 00  returns 0x00 (0000ms, 1644ms total)
T23F8 049:518 JLINK_ReadMem (0x20008128, 0x0001 Bytes, ...) -- Read from C cache (1 bytes @ 0x20008128) -- Data:  00  returns 0x00 (0000ms, 1644ms total)
T23F8 049:518 JLINK_ReadMem (0x00000000, 0x0004 Bytes, ...) -- CPU_ReadMem(4 bytes @ 0x00000004) -- CPU_ReadMem(64 bytes @ 0x08000000) -- Updating C cache (64 bytes @ 0x08000000) -- Read from C cache (4 bytes @ 0x08000000) -- Data:  D8 78 00 20  returns 0x00 (0002ms, 1646ms total)
T23F8 052:010 JLINK_ReadMem (0x08001C3A, 0x0002 Bytes, ...) -- CPU_ReadMem(64 bytes @ 0x08001C00) -- Updating C cache (64 bytes @ 0x08001C00) -- Read from C cache (2 bytes @ 0x08001C3A) -- Data:  32 48  returns 0x00 (0002ms, 1648ms total)
T23F8 052:012 JLINK_ReadMem (0x08001C3C, 0x003C Bytes, ...) -- CPU_ReadMem(64 bytes @ 0x08001C40) -- Updating C cache (64 bytes @ 0x08001C40) -- Read from C cache (60 bytes @ 0x08001C3C) -- Data:  03 78 82 68 41 68 31 A0 0E F0 B0 FD 20 46 0F F0 ...  returns 0x00 (0001ms, 1649ms total)
T23F8 055:197 JLINK_SetResetType(JLINKARM_RESET_TYPE_NORMAL)  returns JLINKARM_RESET_TYPE_NORMAL (0000ms, 1649ms total)
T23F8 055:197 JLINK_Reset() -- CPU_WriteMem(4 bytes @ 0xE000EDF0) -- CPU_WriteMem(4 bytes @ 0xE000EDFC) >0x35 TIF> -- CPU_WriteMem(4 bytes @ 0xE000ED0C) -- CPU_ReadMem(4 bytes @ 0xE000EDF0) -- CPU_ReadMem(4 bytes @ 0xE000EDF0) -- CPU_WriteMem(4 bytes @ 0xE000EDF0) -- CPU_WriteMem(4 bytes @ 0xE000EDFC) -- CPU is running -- CPU_ReadMem(4 bytes @ 0xE000EDF0) -- CPU_WriteMem(4 bytes @ 0xE0002000) -- CPU_ReadMem(4 bytes @ 0xE000EDFC) -- CPU_ReadMem(4 bytes @ 0xE0001000) (0021ms, 1670ms total)
T23F8 055:218 JLINK_ReadReg(R15 (PC))  returns 0x0800E4CC (0000ms, 1670ms total)
T23F8 055:218 JLINK_ReadReg(XPSR)  returns 0x01000000 (0001ms, 1671ms total)
T23F8 055:358 JLINK_ReadMem (0x0800E4CC, 0x003C Bytes, ...) -- CPU_ReadMem(128 bytes @ 0x0800E4C0) -- Updating C cache (128 bytes @ 0x0800E4C0) -- Read from C cache (60 bytes @ 0x0800E4CC) -- Data:  06 48 80 47 06 48 00 47 FE E7 FE E7 FE E7 FE E7 ...  returns 0x00 (0001ms, 1672ms total)
T0FE0 056:000 JLINK_SetBPEx(Addr = 0x08002802, Type = 0xFFFFFFF2)  returns 0x00000005 (0000ms, 1672ms total)
T0FE0 056:000 JLINK_SetBPEx(Addr = 0x08001C1C, Type = 0xFFFFFFF2)  returns 0x00000006 (0000ms, 1672ms total)
T0FE0 056:001 JLINK_SetBPEx(Addr = 0x08001C3A, Type = 0xFFFFFFF2)  returns 0x00000007 (0000ms, 1672ms total)
T0FE0 056:001 JLINK_Go() -- CPU_WriteMem(4 bytes @ 0xE0002000) -- CPU_WriteMem(4 bytes @ 0xE0002000) -- CPU_WriteMem(4 bytes @ 0xE0002000) -- CPU_WriteMem(4 bytes @ 0xE0002008) -- CPU_WriteMem(4 bytes @ 0xE000200C) -- CPU_WriteMem(4 bytes @ 0xE0002010) -- CPU_WriteMem(4 bytes @ 0xE0002014) -- CPU_WriteMem(4 bytes @ 0xE0002018) -- CPU_WriteMem(4 bytes @ 0xE000201C) -- CPU_WriteMem(4 bytes @ 0xE0001004) (0007ms, 1679ms total)
T0FE0 056:108 JLINK_IsHalted()  returns TRUE (0003ms, 1682ms total)
T0FE0 056:111 JLINK_Halt()  returns 0x00 (0000ms, 1679ms total)
T0FE0 056:111 JLINK_IsHalted()  returns TRUE (0000ms, 1679ms total)
T0FE0 056:111 JLINK_IsHalted()  returns TRUE (0000ms, 1679ms total)
T0FE0 056:111 JLINK_IsHalted()  returns TRUE (0000ms, 1679ms total)
T0FE0 056:111 JLINK_ReadReg(R15 (PC))  returns 0x08002802 (0000ms, 1679ms total)
T0FE0 056:111 JLINK_ReadReg(XPSR)  returns 0x61000000 (0000ms, 1679ms total)
T0FE0 056:111 JLINK_ClrBPEx(BPHandle = 0x00000005)  returns 0x00 (0000ms, 1679ms total)
T0FE0 056:111 JLINK_ClrBPEx(BPHandle = 0x00000006)  returns 0x00 (0000ms, 1679ms total)
T0FE0 056:111 JLINK_ClrBPEx(BPHandle = 0x00000007)  returns 0x00 (0000ms, 1679ms total)
T0FE0 056:111 JLINK_ReadMemU32(0xE000ED30, 0x0001 Items, ...) -- CPU_ReadMem(4 bytes @ 0xE000ED30) -- Data:  03 00 00 00  returns 0x01 (0001ms, 1680ms total)
T0FE0 056:112 JLINK_ReadMemU32(0xE0001028, 0x0001 Items, ...) -- CPU_ReadMem(4 bytes @ 0xE0001028) -- Data:  00 00 00 00  returns 0x01 (0001ms, 1681ms total)
T0FE0 056:113 JLINK_ReadMemU32(0xE0001038, 0x0001 Items, ...) -- CPU_ReadMem(4 bytes @ 0xE0001038) -- Data:  00 02 00 00  returns 0x01 (0000ms, 1681ms total)
T0FE0 056:113 JLINK_ReadMemU32(0xE0001048, 0x0001 Items, ...) -- CPU_ReadMem(4 bytes @ 0xE0001048) -- Data:  00 00 00 00  returns 0x01 (0001ms, 1682ms total)
T0FE0 056:114 JLINK_ReadMemU32(0xE0001058, 0x0001 Items, ...) -- CPU_ReadMem(4 bytes @ 0xE0001058) -- Data:  00 00 00 00  returns 0x01 (0001ms, 1683ms total)
T0FE0 056:115 JLINK_ReadReg(R0)  returns 0x00000000 (0000ms, 1683ms total)
T0FE0 056:115 JLINK_ReadReg(R1)  returns 0x40023824 (0000ms, 1683ms total)
T0FE0 056:115 JLINK_ReadReg(R2)  returns 0x00000008 (0000ms, 1683ms total)
T0FE0 056:115 JLINK_ReadReg(R3)  returns 0x00000200 (0000ms, 1683ms total)
T0FE0 056:115 JLINK_ReadReg(R4)  returns 0x00000000 (0000ms, 1683ms total)
T0FE0 056:115 JLINK_ReadReg(R5)  returns 0x00000000 (0000ms, 1683ms total)
T0FE0 056:115 JLINK_ReadReg(R6)  returns 0x00000000 (0000ms, 1683ms total)
T0FE0 056:116 JLINK_ReadReg(R7)  returns 0xDEADBEEF (0000ms, 1684ms total)
T0FE0 056:116 JLINK_ReadReg(R8)  returns 0xDEADBEEF (0000ms, 1684ms total)
T0FE0 056:116 JLINK_ReadReg(R9)  returns 0xDEADBEEF (0000ms, 1684ms total)
T0FE0 056:116 JLINK_ReadReg(R10)  returns 0xDEADBEEF (0000ms, 1684ms total)
T0FE0 056:116 JLINK_ReadReg(R11)  returns 0xDEADBEEF (0000ms, 1684ms total)
T0FE0 056:116 JLINK_ReadReg(R12)  returns 0x0801870D (0000ms, 1684ms total)
T0FE0 056:116 JLINK_ReadReg(R13 (SP))  returns 0x20008128 (0000ms, 1684ms total)
T0FE0 056:116 JLINK_ReadReg(R14)  returns 0x080029BB (0000ms, 1684ms total)
T0FE0 056:116 JLINK_ReadReg(R15 (PC))  returns 0x08002802 (0000ms, 1684ms total)
T0FE0 056:116 JLINK_ReadReg(XPSR)  returns 0x61000000 (0000ms, 1684ms total)
T0FE0 056:116 JLINK_ReadReg(MSP)  returns 0x200078B8 (0000ms, 1684ms total)
T0FE0 056:116 JLINK_ReadReg(PSP)  returns 0x20008128 (0000ms, 1684ms total)
T0FE0 056:116 JLINK_ReadReg(CFBP)  returns 0x02000000 (0000ms, 1684ms total)
T0FE0 056:116 JLINK_ReadReg(FPSCR)  returns 0x00000000 (0004ms, 1688ms total)
T0FE0 056:120 JLINK_ReadReg(FPS0)  returns 0x00000000 (0000ms, 1688ms total)
T0FE0 056:120 JLINK_ReadReg(FPS1)  returns 0x00000000 (0000ms, 1688ms total)
T0FE0 056:120 JLINK_ReadReg(FPS2)  returns 0x00000000 (0000ms, 1688ms total)
T0FE0 056:120 JLINK_ReadReg(FPS3)  returns 0x00000000 (0001ms, 1689ms total)
T0FE0 056:121 JLINK_ReadReg(FPS4)  returns 0x00000000 (0000ms, 1689ms total)
T0FE0 056:121 JLINK_ReadReg(FPS5)  returns 0x00000000 (0000ms, 1689ms total)
T0FE0 056:121 JLINK_ReadReg(FPS6)  returns 0x00000000 (0000ms, 1689ms total)
T0FE0 056:121 JLINK_ReadReg(FPS7)  returns 0x00000000 (0000ms, 1689ms total)
T0FE0 056:121 JLINK_ReadReg(FPS8)  returns 0x00000000 (0000ms, 1689ms total)
T0FE0 056:121 JLINK_ReadReg(FPS9)  returns 0x00000000 (0000ms, 1689ms total)
T0FE0 056:121 JLINK_ReadReg(FPS10)  returns 0x00000000 (0000ms, 1689ms total)
T0FE0 056:121 JLINK_ReadReg(FPS11)  returns 0x00000000 (0000ms, 1689ms total)
T0FE0 056:121 JLINK_ReadReg(FPS12)  returns 0x00000000 (0000ms, 1689ms total)
T0FE0 056:121 JLINK_ReadReg(FPS13)  returns 0x00000000 (0000ms, 1689ms total)
T0FE0 056:121 JLINK_ReadReg(FPS14)  returns 0x00000000 (0000ms, 1689ms total)
T0FE0 056:121 JLINK_ReadReg(FPS15)  returns 0x00000000 (0000ms, 1689ms total)
T0FE0 056:121 JLINK_ReadReg(FPS16)  returns 0x00000000 (0000ms, 1689ms total)
T0FE0 056:121 JLINK_ReadReg(FPS17)  returns 0x00000000 (0000ms, 1689ms total)
T0FE0 056:121 JLINK_ReadReg(FPS18)  returns 0x00000000 (0000ms, 1689ms total)
T0FE0 056:121 JLINK_ReadReg(FPS19)  returns 0x00000000 (0000ms, 1689ms total)
T0FE0 056:121 JLINK_ReadReg(FPS20)  returns 0x00000000 (0000ms, 1689ms total)
T0FE0 056:121 JLINK_ReadReg(FPS31)  returns 0x00000000 (0000ms, 1689ms total)
T0FE0 056:121 JLINK_ReadReg(FPS7)  returns 0x00000000 (0000ms, 1689ms total)
T0FE0 056:121 JLINK_ReadReg(FPS8)  returns 0x00000000 (0000ms, 1689ms total)
T0FE0 056:121 JLINK_ReadReg(FPS9)  returns 0x00000000 (0000ms, 1689ms total)
T0FE0 056:121 JLINK_ReadReg(FPS10)  returns 0x00000000 (0000ms, 1689ms total)
T0FE0 056:121 JLINK_ReadReg(FPS11)  returns 0x00000000 (0000ms, 1689ms total)
T0FE0 056:121 JLINK_ReadReg(FPS12)  returns 0x00000000 (0000ms, 1689ms total)
T0FE0 056:121 JLINK_ReadReg(FPS13)  returns 0x00000000 (0000ms, 1689ms total)
T0FE0 056:121 JLINK_ReadReg(FPS14)  returns 0x00000000 (0000ms, 1689ms total)
T0FE0 056:121 JLINK_ReadReg(FPS15)  returns 0x00000000 (0000ms, 1689ms total)
T0FE0 056:121 JLINK_ReadReg(FPS16)  returns 0x00000000 (0000ms, 1689ms total)
T23F8 056:122 JLINK_ReadMem (0x2000813C, 0x0004 Bytes, ...) -- CPU_ReadMem(64 bytes @ 0x20008100) -- Updating C cache (64 bytes @ 0x20008100) -- Read from C cache (4 bytes @ 0x2000813C) -- Data:  BB 29 00 08  returns 0x00 (0002ms, 1691ms total)
T23F8 056:124 JLINK_ReadMem (0x2000812C, 0x0004 Bytes, ...) -- Read from C cache (4 bytes @ 0x2000812C) -- Data:  00 00 00 00  returns 0x00 (0000ms, 1691ms total)
T23F8 056:124 JLINK_ReadMem (0x20008130, 0x0004 Bytes, ...) -- Read from C cache (4 bytes @ 0x20008130) -- Data:  EF BE AD DE  returns 0x00 (0000ms, 1691ms total)
T23F8 056:124 JLINK_ReadMem (0x20008134, 0x0004 Bytes, ...) -- Read from C cache (4 bytes @ 0x20008134) -- Data:  EF BE AD DE  returns 0x00 (0000ms, 1691ms total)
T23F8 056:124 JLINK_ReadMem (0x20008138, 0x0004 Bytes, ...) -- Read from C cache (4 bytes @ 0x20008138) -- Data:  EF BE AD DE  returns 0x00 (0000ms, 1691ms total)
T23F8 056:124 JLINK_ReadMem (0x20008144, 0x0004 Bytes, ...) -- CPU_ReadMem(64 bytes @ 0x20008140) -- Updating C cache (64 bytes @ 0x20008140) -- Read from C cache (4 bytes @ 0x20008144) -- Data:  E3 1B 00 08  returns 0x00 (0001ms, 1692ms total)
T23F8 056:125 JLINK_ReadMem (0x20008154, 0x0004 Bytes, ...) -- Read from C cache (4 bytes @ 0x20008154) -- Data:  69 1C 00 08  returns 0x00 (0000ms, 1692ms total)
T23F8 056:125 JLINK_ReadMem (0x2000814C, 0x0004 Bytes, ...) -- Read from C cache (4 bytes @ 0x2000814C) -- Data:  00 00 00 00  returns 0x00 (0000ms, 1692ms total)
T23F8 056:125 JLINK_ReadMem (0x20008150, 0x0004 Bytes, ...) -- Read from C cache (4 bytes @ 0x20008150) -- Data:  EF BE AD DE  returns 0x00 (0000ms, 1692ms total)
T23F8 056:125 JLINK_ReadMem (0x2000815C, 0x0004 Bytes, ...) -- Read from C cache (4 bytes @ 0x2000815C) -- Data:  DB 01 00 08  returns 0x00 (0000ms, 1692ms total)
T23F8 056:125 JLINK_ReadMem (0x20008158, 0x0004 Bytes, ...) -- Read from C cache (4 bytes @ 0x20008158) -- Data:  00 00 00 00  returns 0x00 (0001ms, 1693ms total)
T23F8 056:126 JLINK_ReadMem (0x2000816C, 0x0004 Bytes, ...) -- Read from C cache (4 bytes @ 0x2000816C) -- Data:  C5 1C 01 08  returns 0x00 (0000ms, 1693ms total)
T23F8 056:126 JLINK_ReadMem (0x20008164, 0x0004 Bytes, ...) -- Read from C cache (4 bytes @ 0x20008164) -- Data:  EF BE AD DE  returns 0x00 (0000ms, 1693ms total)
T23F8 056:126 JLINK_ReadMem (0x20008168, 0x0004 Bytes, ...) -- Read from C cache (4 bytes @ 0x20008168) -- Data:  EF BE AD DE  returns 0x00 (0000ms, 1693ms total)
T23F8 056:126 JLINK_ReadMem (0x20008174, 0x0004 Bytes, ...) -- Read from C cache (4 bytes @ 0x20008174) -- Data:  50 0B 00 00  returns 0x00 (0000ms, 1693ms total)
T23F8 056:126 JLINK_ReadMem (0x2000817C, 0x0004 Bytes, ...) -- Read from C cache (4 bytes @ 0x2000817C) -- Data:  73 68 72 78  returns 0x00 (0000ms, 1693ms total)
T23F8 056:126 JLINK_ReadMem (0x20008184, 0x0004 Bytes, ...) -- CPU_ReadMem(64 bytes @ 0x20008180) -- Updating C cache (64 bytes @ 0x20008180) -- Read from C cache (4 bytes @ 0x20008184) -- Data:  81 00 00 00  returns 0x00 (0001ms, 1694ms total)
T23F8 056:127 JLINK_ReadMem (0x2000818C, 0x0004 Bytes, ...) -- Read from C cache (4 bytes @ 0x2000818C) -- Data:  E0 00 00 20  returns 0x00 (0000ms, 1694ms total)
T23F8 056:127 JLINK_ReadMem (0x20008194, 0x0004 Bytes, ...) -- Read from C cache (4 bytes @ 0x20008194) -- Data:  90 81 00 20  returns 0x00 (0000ms, 1694ms total)
T23F8 056:127 JLINK_ReadMem (0x2000819C, 0x0004 Bytes, ...) -- Read from C cache (4 bytes @ 0x2000819C) -- Data:  00 00 00 00  returns 0x00 (0000ms, 1694ms total)
T23F8 056:128 JLINK_ReadMem (0x20008128, 0x0001 Bytes, ...) -- Read from C cache (1 bytes @ 0x20008128) -- Data:  00  returns 0x00 (0000ms, 1694ms total)
T23F8 056:128 JLINK_ReadMem (0x00000000, 0x0004 Bytes, ...) -- CPU_ReadMem(4 bytes @ 0x00000004) -- CPU_ReadMem(64 bytes @ 0x08000000) -- Updating C cache (64 bytes @ 0x08000000) -- Read from C cache (4 bytes @ 0x08000000) -- Data:  D8 78 00 20  returns 0x00 (0002ms, 1696ms total)
T0FE0 059:497 JLINK_Step() -- CPU_ReadMem(64 bytes @ 0x08002800) -- Updating C cache (64 bytes @ 0x08002800) -- Read from C cache (2 bytes @ 0x08002802) -- CPU_ReadMem(4 bytes @ 0xE0001004) -- Simulated  returns 0x00 (0004ms, 1700ms total)
T0FE0 059:501 JLINK_ReadReg(R15 (PC))  returns 0x08002804 (0000ms, 1700ms total)
T0FE0 059:501 JLINK_ReadReg(XPSR)  returns 0x61000000 (0000ms, 1700ms total)
T0FE0 059:501 JLINK_SetBPEx(Addr = 0x08002802, Type = 0xFFFFFFF2)  returns 0x00000008 (0000ms, 1700ms total)
T0FE0 059:501 JLINK_SetBPEx(Addr = 0x08001C1C, Type = 0xFFFFFFF2)  returns 0x00000009 (0000ms, 1700ms total)
T0FE0 059:501 JLINK_SetBPEx(Addr = 0x08001C3A, Type = 0xFFFFFFF2)  returns 0x0000000A (0000ms, 1700ms total)
T0FE0 059:501 JLINK_Go() -- CPU_WriteMem(4 bytes @ 0xE0002000) -- CPU_WriteMem(4 bytes @ 0xE0002000) -- CPU_WriteMem(4 bytes @ 0xE0002000) -- CPU_WriteMem(4 bytes @ 0xE0001004) (0006ms, 1706ms total)
T0FE0 059:607 JLINK_IsHalted()  returns TRUE (0003ms, 1709ms total)
T0FE0 059:610 JLINK_Halt()  returns 0x00 (0000ms, 1706ms total)
T0FE0 059:610 JLINK_IsHalted()  returns TRUE (0000ms, 1706ms total)
T0FE0 059:610 JLINK_IsHalted()  returns TRUE (0000ms, 1706ms total)
T0FE0 059:610 JLINK_IsHalted()  returns TRUE (0000ms, 1706ms total)
T0FE0 059:610 JLINK_ReadReg(R15 (PC))  returns 0x08001C1C (0000ms, 1706ms total)
T0FE0 059:610 JLINK_ReadReg(XPSR)  returns 0x61000000 (0000ms, 1706ms total)
T0FE0 059:610 JLINK_ClrBPEx(BPHandle = 0x00000008)  returns 0x00 (0000ms, 1706ms total)
T0FE0 059:610 JLINK_ClrBPEx(BPHandle = 0x00000009)  returns 0x00 (0000ms, 1706ms total)
T0FE0 059:610 JLINK_ClrBPEx(BPHandle = 0x0000000A)  returns 0x00 (0000ms, 1706ms total)
T0FE0 059:610 JLINK_ReadMemU32(0xE000ED30, 0x0001 Items, ...) -- CPU_ReadMem(4 bytes @ 0xE000ED30) -- Data:  03 00 00 00  returns 0x01 (0001ms, 1707ms total)
T0FE0 059:611 JLINK_ReadMemU32(0xE0001028, 0x0001 Items, ...) -- CPU_ReadMem(4 bytes @ 0xE0001028) -- Data:  00 00 00 00  returns 0x01 (0001ms, 1708ms total)
T0FE0 059:612 JLINK_ReadMemU32(0xE0001038, 0x0001 Items, ...) -- CPU_ReadMem(4 bytes @ 0xE0001038) -- Data:  00 02 00 00  returns 0x01 (0001ms, 1709ms total)
T0FE0 059:613 JLINK_ReadMemU32(0xE0001048, 0x0001 Items, ...) -- CPU_ReadMem(4 bytes @ 0xE0001048) -- Data:  00 00 00 00  returns 0x01 (0001ms, 1710ms total)
T0FE0 059:614 JLINK_ReadMemU32(0xE0001058, 0x0001 Items, ...) -- CPU_ReadMem(4 bytes @ 0xE0001058) -- Data:  00 00 00 00  returns 0x01 (0001ms, 1711ms total)
T0FE0 059:615 JLINK_ReadReg(R0)  returns 0x00000000 (0000ms, 1711ms total)
T0FE0 059:615 JLINK_ReadReg(R1)  returns 0x00000400 (0000ms, 1711ms total)
T0FE0 059:615 JLINK_ReadReg(R2)  returns 0x00000000 (0000ms, 1711ms total)
T0FE0 059:615 JLINK_ReadReg(R3)  returns 0x00000900 (0000ms, 1711ms total)
T0FE0 059:615 JLINK_ReadReg(R4)  returns 0x20008970 (0000ms, 1711ms total)
T0FE0 059:615 JLINK_ReadReg(R5)  returns 0x00000000 (0000ms, 1711ms total)
T0FE0 059:615 JLINK_ReadReg(R6)  returns 0xDEADBEEF (0000ms, 1711ms total)
